
T3F3C 000:430 SEGGER J-Link V5.02f Log File (0000ms, 0291ms total)
T3F3C 000:430 DLL Compiled: Oct  2 2015 20:51:34 (0000ms, 0291ms total)
T3F3C 000:430 Logging started @ 2017-04-05 22:29 (0000ms, 0291ms total)
T3F3C 000:430 JLINK_SetWarnOutHandler(...) (0000ms, 0291ms total)
T3F3C 000:430 JLINK_OpenEx(...)
Firmware: J-Link ARM V8 compiled Jan 31 2018 18:34:52
Hardware: V8.00
S/N: 20080643
Feature(s): RDI,FlashDL,FlashBP,JFlash,GDBFull  returns O.K. (0290ms, 0581ms total)
T3F3C 000:720 JLINK_SetErrorOutHandler(...) (0000ms, 0581ms total)
T3F3C 000:721 JLINK_ExecCommand("ProjectFile = "D:\Study\实验室\无人机飞控\工作区\ProjectTemplate\JLinkSettings.ini"", ...)  returns 0x00 (0002ms, 0583ms total)
T3F3C 000:740 JLINK_ExecCommand("Device = STM32F103C8", ...)Device "STM32F103C8" selected.  returns 0x00 (0021ms, 0604ms total)
T3F3C 000:761 JLINK_ExecCommand("DisableConnectionTimeout", ...)  returns 0x01 (0000ms, 0604ms total)
T3F3C 000:761 JLINK_GetHardwareVersion()  returns 0x13880 (0000ms, 0604ms total)
T3F3C 000:761 JLINK_GetDLLVersion()  returns 50206 (0000ms, 0604ms total)
T3F3C 000:761 JLINK_GetFirmwareString(...) (0000ms, 0604ms total)
T3F3C 000:811 JLINK_GetDLLVersion()  returns 50206 (0000ms, 0604ms total)
T3F3C 000:811 JLINK_GetCompileDateTime() (0000ms, 0604ms total)
T3F3C 000:831 JLINK_GetFirmwareString(...) (0000ms, 0604ms total)
T3F3C 000:838 JLINK_GetHardwareVersion()  returns 0x13880 (0001ms, 0605ms total)
T3F3C 000:920 JLINK_TIF_Select(JLINKARM_TIF_SWD)  returns 0x00 (0003ms, 0608ms total)
T3F3C 000:923 JLINK_SetSpeed(2000) (0001ms, 0609ms total)
T3F3C 000:924 JLINK_GetId() >0x108 TIF>Found SWD-DP with ID 0x2BA01477 >0x0D TIF> >0x28 TIF> >0x0D TIF> >0x28 TIF> >0x0D TIF> >0x21 TIF> >0x0D TIF> >0x28 TIF> >0x0D TIF> >0x28 TIF> >0x0D TIF> >0x28 TIF> >0x0D TIF> >0x21 TIF> >0x0D TIF> >0x21 TIF> >0x0D TIF> >0x28 TIF> >0x0D TIF> >0x21 TIF> >0x0D TIF> >0x21 TIF> >0x0D TIF> >0x28 TIF> >0x0D TIF> >0x21 TIF> >0x0D TIF> >0x21 TIF> >0x0D TIF> >0x28 TIF> >0x0D TIF> >0x21 TIF> >0x0D TIF> >0x21 TIF> >0x108 TIF>Found SWD-DP with ID 0x2BA01477 >0x0D TIF> >0x21 TIF>
 >0x0D TIF> >0x28 TIF> >0x0D TIF> >0x28 TIF> >0x0D TIF> >0x21 TIF> >0x0D TIF> >0x28 TIF> >0x0D TIF> >0x21 TIF> >0x0D TIF> >0x21 TIF> >0x0D TIF> >0x21 TIF> >0x0D TIF> >0x28 TIF> >0x0D TIF> >0x21 TIF> >0x0D TIF> >0x28 TIF> >0x0D TIF> >0x28 TIF> >0x0D TIF> >0x21 TIF> >0x0D TIF> >0x28 TIF> >0x0D TIF> >0x28 TIF> >0x0D TIF> >0x28 TIF> >0x0D TIF> >0x21 TIF> >0x0D TIF> >0x21 TIF> >0x0D TIF> >0x28 TIF> >0x0D TIF> >0x21 TIF> >0x0D TIF> >0x21 TIF>Found Cortex-M4 r0p1, Little endian. >0x0D TIF> >0x28 TIF>
Identified core does not match configuration. (Found: Cortex-M4, Configured: Cortex-M3) -- CPU_ReadMem(4 bytes @ 0xE000EDF0) -- CPU_ReadMem(4 bytes @ 0xE0002000)FPUnit: 6 code (BP) slots and 2 literal slots -- CPU_ReadMem(4 bytes @ 0xE000EDFC) -- CPU_ReadMem(4 bytes @ 0xE0001000) -- CPU_WriteMem(4 bytes @ 0xE0001000) -- CPU_ReadMem(4 bytes @ 0xE000ED88) -- CPU_WriteMem(4 bytes @ 0xE000ED88) -- CPU_ReadMem(4 bytes @ 0xE000ED88) -- CPU_WriteMem(4 bytes @ 0xE000ED88)CoreSight components:ROMTbl 0 @ E00FF000
 -- CPU_ReadMem(16 bytes @ 0xE00FF000) -- CPU_ReadMem(16 bytes @ 0xE000EFF0) -- CPU_ReadMem(16 bytes @ 0xE000EFE0)ROMTbl 0 [0]: FFF0F000, CID: B105E00D, PID: 000BB00C SCS -- CPU_ReadMem(16 bytes @ 0xE0001FF0) -- CPU_ReadMem(16 bytes @ 0xE0001FE0)ROMTbl 0 [1]: FFF02000, CID: B105E00D, PID: 003BB002 DWT -- CPU_ReadMem(16 bytes @ 0xE0002FF0) -- CPU_ReadMem(16 bytes @ 0xE0002FE0)ROMTbl 0 [2]: FFF03000, CID: B105E00D, PID: 002BB003 FPB -- CPU_ReadMem(16 bytes @ 0xE0000FF0)
 -- CPU_ReadMem(16 bytes @ 0xE0000FE0)ROMTbl 0 [3]: FFF01000, CID: B105E00D, PID: 003BB001 ITM -- CPU_ReadMem(16 bytes @ 0xE00FF010) -- CPU_ReadMem(16 bytes @ 0xE0040FF0) -- CPU_ReadMem(16 bytes @ 0xE0040FE0)ROMTbl 0 [4]: FFF41000, CID: B105900D, PID: 000BB9A1 TPIU -- CPU_ReadMem(16 bytes @ 0xE0041FF0) -- CPU_ReadMem(16 bytes @ 0xE0041FE0)ROMTbl 0 [5]: FFF42000, CID: B105900D, PID: 000BB925 ETM >0x0D TIF> >0x21 TIF>  returns 0x2BA01477 (0183ms, 0792ms total)
T3F3C 001:107 JLINK_GetDLLVersion()  returns 50206 (0001ms, 0793ms total)
T3F3C 001:108 JLINK_CORE_GetFound()  returns 0xE0000FF (0000ms, 0793ms total)
T3F3C 001:108 JLINK_GetDebugInfo(0x100) -- Value=0xE00FF003  returns 0x00 (0000ms, 0793ms total)
T3F3C 001:115 JLINK_GetDebugInfo(0x100) -- Value=0xE00FF003  returns 0x00 (0000ms, 0793ms total)
T3F3C 001:115 JLINK_GetDebugInfo(0x101) -- Value=0xE0041000  returns 0x00 (0000ms, 0793ms total)
T3F3C 001:115 JLINK_GetDebugInfo(0x102) -- Value=0x00000000  returns 0x00 (0000ms, 0793ms total)
T3F3C 001:115 JLINK_GetDebugInfo(0x103) -- Value=0xE0040000  returns 0x00 (0001ms, 0794ms total)
T3F3C 001:116 JLINK_GetDebugInfo(0x104) -- Value=0xE0000000  returns 0x00 (0000ms, 0794ms total)
T3F3C 001:116 JLINK_GetDebugInfo(0x105) -- Value=0xE0001000  returns 0x00 (0000ms, 0794ms total)
T3F3C 001:116 JLINK_GetDebugInfo(0x106) -- Value=0xE0002000  returns 0x00 (0000ms, 0794ms total)
T3F3C 001:116 JLINK_GetDebugInfo(0x107) -- Value=0xE000E000  returns 0x00 (0000ms, 0794ms total)
T3F3C 001:116 JLINK_GetDebugInfo(0x10C) -- Value=0xE000EDF0  returns 0x00 (0000ms, 0794ms total)
T3F3C 001:116 JLINK_ReadMemU32(0xE000EF40, 0x0001 Items, ...) -- CPU is running -- CPU_ReadMem(4 bytes @ 0xE000EF40) - Data: 21 00 11 10  returns 0x01 (0001ms, 0795ms total)
T3F3C 001:117 JLINK_ReadMemU32(0xE000EF44, 0x0001 Items, ...) -- CPU is running -- CPU_ReadMem(4 bytes @ 0xE000EF44) - Data: 11 00 00 11  returns 0x01 (0001ms, 0796ms total)
T3F3C 001:118 JLINK_ReadMemU32(0xE000ED00, 0x0001 Items, ...) -- CPU is running -- CPU_ReadMem(4 bytes @ 0xE000ED00) - Data: 41 C2 0F 41  returns 0x01 (0001ms, 0797ms total)
T3F3C 001:119 JLINK_SetResetType(JLINKARM_RESET_TYPE_NORMAL)  returns JLINKARM_RESET_TYPE_NORMAL (0000ms, 0797ms total)
T3F3C 001:119 JLINK_Reset() -- CPU_WriteMem(4 bytes @ 0xE0002000) -- CPU_ReadMem(4 bytes @ 0xE000EDFC) -- CPU_WriteMem(4 bytes @ 0xE000EDFC) -- CPU_ReadMem(4 bytes @ 0xE0001000) (0021ms, 0818ms total)
T3F3C 001:140 JLINK_Halt()  returns 0x00 (0000ms, 0818ms total)
T3F3C 001:140 JLINK_IsHalted()  returns TRUE (0000ms, 0818ms total)
T3F3C 001:140 JLINK_ReadMemU32(0xE000EDF0, 0x0001 Items, ...) -- CPU_ReadMem(4 bytes @ 0xE000EDF0) - Data: 03 00 03 00  returns 0x01 (0001ms, 0819ms total)
T3F3C 001:141 JLINK_WriteU32(0xE000EDF0, 0xA05F0003) -- CPU_WriteMem(4 bytes @ 0xE000EDF0)  returns 0x00 (0001ms, 0820ms total)
T3F3C 001:142 JLINK_WriteU32(0xE000EDFC, 0x01000000) -- CPU_WriteMem(4 bytes @ 0xE000EDFC)  returns 0x00 (0001ms, 0821ms total)
T3F3C 001:184 JLINK_GetHWStatus(...)  returns 0x00 (0001ms, 0822ms total)
T3F3C 001:198 JLINK_GetNumBPUnits(Type = 0xFFFFFF00)  returns 0x06 (0000ms, 0822ms total)
T3F3C 001:198 JLINK_GetNumBPUnits(Type = 0xF0)  returns 0x2000 (0000ms, 0822ms total)
T3F3C 001:198 JLINK_GetNumWPUnits()  returns 0x04 (0000ms, 0822ms total)
T3F3C 001:223 JLINK_GetSpeed()  returns 0x7D0 (0000ms, 0822ms total)
T3F3C 001:232 JLINK_ReadMemU32(0xE000E004, 0x0001 Items, ...) -- CPU_ReadMem(4 bytes @ 0xE000E004) - Data: 02 00 00 00  returns 0x01 (0001ms, 0823ms total)
T3F3C 001:233 JLINK_ReadMemU32(0xE000E004, 0x0001 Items, ...) -- CPU_ReadMem(4 bytes @ 0xE000E004) - Data: 02 00 00 00  returns 0x01 (0001ms, 0824ms total)
T3F3C 001:234 JLINK_WriteMem(0xE0001000, 0x001C Bytes, ...) - Data: 01 00 00 00 00 00 00 00 00 00 00 00 00 00 00 00 ... -- CPU_WriteMem(28 bytes @ 0xE0001000)  returns 0x1C (0003ms, 0827ms total)
T3F3C 001:237 JLINK_ReadMem (0xE0001000, 0x001C Bytes, ...) -- CPU_ReadMem(28 bytes @ 0xE0001000) - Data: 01 00 00 40 00 00 00 00 00 00 00 00 00 00 00 00 ...  returns 0x00 (0001ms, 0828ms total)
T3F3C 001:238 JLINK_Halt()  returns 0x00 (0000ms, 0828ms total)
T3F3C 001:238 JLINK_IsHalted()  returns TRUE (0000ms, 0828ms total)
T3F3C 001:252 JLINK_WriteMem(0x20000000, 0x0164 Bytes, ...) - Data: 00 BE 0A E0 0D 78 2D 06 68 40 08 24 40 00 00 D3 ... -- CPU_WriteMem(356 bytes @ 0x20000000)  returns 0x164 (0006ms, 0834ms total)
T3F3C 001:259 JLINK_WriteReg(R0, 0x08000000)  returns 0x00 (0000ms, 0834ms total)
T3F3C 001:259 JLINK_WriteReg(R1, 0x00B71B00)  returns 0x00 (0000ms, 0834ms total)
T3F3C 001:259 JLINK_WriteReg(R2, 0x00000001)  returns 0x00 (0000ms, 0834ms total)
T3F3C 001:259 JLINK_WriteReg(R3, 0x00000000)  returns 0x00 (0000ms, 0834ms total)
T3F3C 001:259 JLINK_WriteReg(R4, 0x00000000)  returns 0x00 (0000ms, 0834ms total)
T3F3C 001:259 JLINK_WriteReg(R5, 0x00000000)  returns 0x00 (0000ms, 0834ms total)
T3F3C 001:259 JLINK_WriteReg(R6, 0x00000000)  returns 0x00 (0000ms, 0834ms total)
T3F3C 001:259 JLINK_WriteReg(R7, 0x00000000)  returns 0x00 (0000ms, 0834ms total)
T3F3C 001:259 JLINK_WriteReg(R8, 0x00000000)  returns 0x00 (0000ms, 0834ms total)
T3F3C 001:259 JLINK_WriteReg(R9, 0x20000160)  returns 0x00 (0000ms, 0834ms total)
T3F3C 001:259 JLINK_WriteReg(R10, 0x00000000)  returns 0x00 (0000ms, 0834ms total)
T3F3C 001:259 JLINK_WriteReg(R11, 0x00000000)  returns 0x00 (0000ms, 0834ms total)
T3F3C 001:259 JLINK_WriteReg(R12, 0x00000000)  returns 0x00 (0000ms, 0834ms total)
T3F3C 001:259 JLINK_WriteReg(R13 (SP), 0x20001000)  returns 0x00 (0000ms, 0834ms total)
T3F3C 001:259 JLINK_WriteReg(R14, 0x20000001)  returns 0x00 (0000ms, 0834ms total)
T3F3C 001:259 JLINK_WriteReg(R15 (PC), 0x20000038)  returns 0x00 (0000ms, 0834ms total)
T3F3C 001:259 JLINK_WriteReg(XPSR, 0x01000000)  returns 0x00 (0000ms, 0834ms total)
T3F3C 001:259 JLINK_WriteReg(MSP, 0x20001000)  returns 0x00 (0000ms, 0834ms total)
T3F3C 001:259 JLINK_WriteReg(PSP, 0x20001000)  returns 0x00 (0000ms, 0834ms total)
T3F3C 001:259 JLINK_WriteReg(CFBP, 0x00000000)  returns 0x00 (0001ms, 0835ms total)
T3F3C 001:260 JLINK_SetBPEx(Addr = 0x20000000, Type = 0xFFFFFFF2) -- CPU_ReadMem(2 bytes @ 0x20000000)  returns 0x00000001 (0001ms, 0836ms total)
T3F3C 001:261 JLINK_Go() -- CPU_WriteMem(2 bytes @ 0x20000000) -- CPU_ReadMem(4 bytes @ 0xE0001000) -- CPU_WriteMem(4 bytes @ 0xE0002008) -- CPU_WriteMem(4 bytes @ 0xE000200C) -- CPU_WriteMem(4 bytes @ 0xE0002010) -- CPU_WriteMem(4 bytes @ 0xE0002014) -- CPU_WriteMem(4 bytes @ 0xE0002018) -- CPU_WriteMem(4 bytes @ 0xE000201C) -- CPU_WriteMem(4 bytes @ 0xE0001004) (0008ms, 0844ms total)
T3F3C 001:269 JLINK_IsHalted() -- CPU_ReadMem(2 bytes @ 0x20000000)  returns TRUE (0007ms, 0851ms total)
T3F3C 001:276 JLINK_ReadReg(R15 (PC))  returns 0x20000000 (0000ms, 0844ms total)
T3F3C 001:276 JLINK_ClrBPEx(BPHandle = 0x00000001)  returns 0x00 (0000ms, 0844ms total)
T3F3C 001:276 JLINK_ReadReg(R0)  returns 0x00000000 (0000ms, 0844ms total)
T3F3C 001:278 JLINK_WriteReg(R0, 0x08000000)  returns 0x00 (0000ms, 0844ms total)
T3F3C 001:278 JLINK_WriteReg(R1, 0x00B71B00)  returns 0x00 (0000ms, 0844ms total)
T3F3C 001:278 JLINK_WriteReg(R2, 0x00000001)  returns 0x00 (0000ms, 0844ms total)
T3F3C 001:278 JLINK_WriteReg(R3, 0x00000000)  returns 0x00 (0000ms, 0844ms total)
T3F3C 001:278 JLINK_WriteReg(R4, 0x00000000)  returns 0x00 (0000ms, 0844ms total)
T3F3C 001:278 JLINK_WriteReg(R5, 0x00000000)  returns 0x00 (0000ms, 0844ms total)
T3F3C 001:278 JLINK_WriteReg(R6, 0x00000000)  returns 0x00 (0000ms, 0844ms total)
T3F3C 001:278 JLINK_WriteReg(R7, 0x00000000)  returns 0x00 (0000ms, 0844ms total)
T3F3C 001:278 JLINK_WriteReg(R8, 0x00000000)  returns 0x00 (0000ms, 0844ms total)
T3F3C 001:278 JLINK_WriteReg(R9, 0x20000160)  returns 0x00 (0000ms, 0844ms total)
T3F3C 001:278 JLINK_WriteReg(R10, 0x00000000)  returns 0x00 (0001ms, 0845ms total)
T3F3C 001:279 JLINK_WriteReg(R11, 0x00000000)  returns 0x00 (0000ms, 0845ms total)
T3F3C 001:279 JLINK_WriteReg(R12, 0x00000000)  returns 0x00 (0000ms, 0845ms total)
T3F3C 001:279 JLINK_WriteReg(R13 (SP), 0x20001000)  returns 0x00 (0000ms, 0845ms total)
T3F3C 001:279 JLINK_WriteReg(R14, 0x20000001)  returns 0x00 (0000ms, 0845ms total)
T3F3C 001:279 JLINK_WriteReg(R15 (PC), 0x2000007C)  returns 0x00 (0000ms, 0845ms total)
T3F3C 001:279 JLINK_WriteReg(XPSR, 0x01000000)  returns 0x00 (0000ms, 0845ms total)
T3F3C 001:279 JLINK_WriteReg(MSP, 0x20001000)  returns 0x00 (0000ms, 0845ms total)
T3F3C 001:279 JLINK_WriteReg(PSP, 0x20001000)  returns 0x00 (0000ms, 0845ms total)
T3F3C 001:279 JLINK_WriteReg(CFBP, 0x00000000)  returns 0x00 (0000ms, 0845ms total)
T3F3C 001:279 JLINK_SetBPEx(Addr = 0x20000000, Type = 0xFFFFFFF2)  returns 0x00000002 (0000ms, 0845ms total)
T3F3C 001:279 JLINK_Go() -- CPU_ReadMem(4 bytes @ 0xE0001000) (0003ms, 0848ms total)
T3F3C 001:282 JLINK_IsHalted() -- CPU_ReadMem(2 bytes @ 0x20000000)  returns TRUE (0007ms, 0855ms total)
T3F3C 001:289 JLINK_ReadReg(R15 (PC))  returns 0x20000000 (0000ms, 0848ms total)
T3F3C 001:289 JLINK_ClrBPEx(BPHandle = 0x00000002)  returns 0x00 (0000ms, 0848ms total)
T3F3C 001:289 JLINK_ReadReg(R0)  returns 0x00000000 (0000ms, 0848ms total)
T3F3C 001:345 JLINK_WriteReg(R0, 0x00000001)  returns 0x00 (0000ms, 0848ms total)
T3F3C 001:345 JLINK_WriteReg(R1, 0x00B71B00)  returns 0x00 (0000ms, 0848ms total)
T3F3C 001:345 JLINK_WriteReg(R2, 0x00000001)  returns 0x00 (0000ms, 0848ms total)
T3F3C 001:345 JLINK_WriteReg(R3, 0x00000000)  returns 0x00 (0000ms, 0848ms total)
T3F3C 001:345 JLINK_WriteReg(R4, 0x00000000)  returns 0x00 (0000ms, 0848ms total)
T3F3C 001:345 JLINK_WriteReg(R5, 0x00000000)  returns 0x00 (0000ms, 0848ms total)
T3F3C 001:345 JLINK_WriteReg(R6, 0x00000000)  returns 0x00 (0000ms, 0848ms total)
T3F3C 001:345 JLINK_WriteReg(R7, 0x00000000)  returns 0x00 (0000ms, 0848ms total)
T3F3C 001:345 JLINK_WriteReg(R8, 0x00000000)  returns 0x00 (0000ms, 0848ms total)
T3F3C 001:345 JLINK_WriteReg(R9, 0x20000160)  returns 0x00 (0000ms, 0848ms total)
T3F3C 001:345 JLINK_WriteReg(R10, 0x00000000)  returns 0x00 (0000ms, 0848ms total)
T3F3C 001:345 JLINK_WriteReg(R11, 0x00000000)  returns 0x00 (0000ms, 0848ms total)
T3F3C 001:345 JLINK_WriteReg(R12, 0x00000000)  returns 0x00 (0000ms, 0848ms total)
T3F3C 001:345 JLINK_WriteReg(R13 (SP), 0x20001000)  returns 0x00 (0000ms, 0848ms total)
T3F3C 001:345 JLINK_WriteReg(R14, 0x20000001)  returns 0x00 (0000ms, 0848ms total)
T3F3C 001:345 JLINK_WriteReg(R15 (PC), 0x2000006A)  returns 0x00 (0000ms, 0848ms total)
T3F3C 001:345 JLINK_WriteReg(XPSR, 0x01000000)  returns 0x00 (0000ms, 0848ms total)
T3F3C 001:345 JLINK_WriteReg(MSP, 0x20001000)  returns 0x00 (0000ms, 0848ms total)
T3F3C 001:345 JLINK_WriteReg(PSP, 0x20001000)  returns 0x00 (0001ms, 0849ms total)
T3F3C 001:346 JLINK_WriteReg(CFBP, 0x00000000)  returns 0x00 (0000ms, 0849ms total)
T3F3C 001:346 JLINK_SetBPEx(Addr = 0x20000000, Type = 0xFFFFFFF2)  returns 0x00000003 (0000ms, 0849ms total)
T3F3C 001:346 JLINK_Go() -- CPU_ReadMem(4 bytes @ 0xE0001000) (0003ms, 0852ms total)
T3F3C 001:349 JLINK_IsHalted() -- CPU_ReadMem(2 bytes @ 0x20000000)  returns TRUE (0007ms, 0859ms total)
T3F3C 001:356 JLINK_ReadReg(R15 (PC))  returns 0x20000000 (0000ms, 0852ms total)
T3F3C 001:356 JLINK_ClrBPEx(BPHandle = 0x00000003)  returns 0x00 (0000ms, 0852ms total)
T3F3C 001:356 JLINK_ReadReg(R0)  returns 0x00000000 (0000ms, 0852ms total)
T3F3C 001:376 JLINK_WriteMem(0x20000000, 0x0164 Bytes, ...) - Data: 00 BE 0A E0 0D 78 2D 06 68 40 08 24 40 00 00 D3 ... -- CPU_WriteMem(356 bytes @ 0x20000000)  returns 0x164 (0005ms, 0857ms total)
T3F3C 001:381 JLINK_WriteReg(R0, 0x08000000)  returns 0x00 (0000ms, 0857ms total)
T3F3C 001:381 JLINK_WriteReg(R1, 0x00B71B00)  returns 0x00 (0001ms, 0858ms total)
T3F3C 001:382 JLINK_WriteReg(R2, 0x00000002)  returns 0x00 (0000ms, 0858ms total)
T3F3C 001:382 JLINK_WriteReg(R3, 0x00000000)  returns 0x00 (0000ms, 0858ms total)
T3F3C 001:382 JLINK_WriteReg(R4, 0x00000000)  returns 0x00 (0000ms, 0858ms total)
T3F3C 001:382 JLINK_WriteReg(R5, 0x00000000)  returns 0x00 (0000ms, 0858ms total)
T3F3C 001:382 JLINK_WriteReg(R6, 0x00000000)  returns 0x00 (0000ms, 0858ms total)
T3F3C 001:382 JLINK_WriteReg(R7, 0x00000000)  returns 0x00 (0000ms, 0858ms total)
T3F3C 001:382 JLINK_WriteReg(R8, 0x00000000)  returns 0x00 (0000ms, 0858ms total)
T3F3C 001:382 JLINK_WriteReg(R9, 0x20000160)  returns 0x00 (0000ms, 0858ms total)
T3F3C 001:382 JLINK_WriteReg(R10, 0x00000000)  returns 0x00 (0000ms, 0858ms total)
T3F3C 001:382 JLINK_WriteReg(R11, 0x00000000)  returns 0x00 (0000ms, 0858ms total)
T3F3C 001:382 JLINK_WriteReg(R12, 0x00000000)  returns 0x00 (0000ms, 0858ms total)
T3F3C 001:382 JLINK_WriteReg(R13 (SP), 0x20001000)  returns 0x00 (0000ms, 0858ms total)
T3F3C 001:382 JLINK_WriteReg(R14, 0x20000001)  returns 0x00 (0000ms, 0858ms total)
T3F3C 001:382 JLINK_WriteReg(R15 (PC), 0x20000038)  returns 0x00 (0000ms, 0858ms total)
T3F3C 001:382 JLINK_WriteReg(XPSR, 0x01000000)  returns 0x00 (0000ms, 0858ms total)
T3F3C 001:382 JLINK_WriteReg(MSP, 0x20001000)  returns 0x00 (0001ms, 0859ms total)
T3F3C 001:383 JLINK_WriteReg(PSP, 0x20001000)  returns 0x00 (0000ms, 0859ms total)
T3F3C 001:383 JLINK_WriteReg(CFBP, 0x00000000)  returns 0x00 (0000ms, 0859ms total)
T3F3C 001:383 JLINK_SetBPEx(Addr = 0x20000000, Type = 0xFFFFFFF2) -- CPU_ReadMem(2 bytes @ 0x20000000)  returns 0x00000004 (0001ms, 0860ms total)
T3F3C 001:384 JLINK_Go() -- CPU_WriteMem(2 bytes @ 0x20000000) -- CPU_ReadMem(4 bytes @ 0xE0001000) (0004ms, 0864ms total)
T3F3C 001:388 JLINK_IsHalted() -- CPU_ReadMem(2 bytes @ 0x20000000)  returns TRUE (0007ms, 0871ms total)
T3F3C 001:395 JLINK_ReadReg(R15 (PC))  returns 0x20000000 (0000ms, 0864ms total)
T3F3C 001:395 JLINK_ClrBPEx(BPHandle = 0x00000004)  returns 0x00 (0000ms, 0864ms total)
T3F3C 001:395 JLINK_ReadReg(R0)  returns 0x00000000 (0000ms, 0864ms total)
T3F3C 001:396 JLINK_WriteMem(0x20000164, 0x0400 Bytes, ...) - Data: 68 18 00 20 A9 01 00 08 B1 01 00 08 B3 01 00 08 ... -- CPU_WriteMem(1024 bytes @ 0x20000164)  returns 0x400 (0012ms, 0876ms total)
T3F3C 001:408 JLINK_WriteReg(R0, 0x08000000)  returns 0x00 (0000ms, 0876ms total)
T3F3C 001:408 JLINK_WriteReg(R1, 0x00000400)  returns 0x00 (0000ms, 0876ms total)
T3F3C 001:408 JLINK_WriteReg(R2, 0x20000164)  returns 0x00 (0000ms, 0876ms total)
T3F3C 001:408 JLINK_WriteReg(R3, 0x00000000)  returns 0x00 (0000ms, 0876ms total)
T3F3C 001:408 JLINK_WriteReg(R4, 0x00000000)  returns 0x00 (0000ms, 0876ms total)
T3F3C 001:408 JLINK_WriteReg(R5, 0x00000000)  returns 0x00 (0000ms, 0876ms total)
T3F3C 001:408 JLINK_WriteReg(R6, 0x00000000)  returns 0x00 (0000ms, 0876ms total)
T3F3C 001:408 JLINK_WriteReg(R7, 0x00000000)  returns 0x00 (0000ms, 0876ms total)
T3F3C 001:408 JLINK_WriteReg(R8, 0x00000000)  returns 0x00 (0000ms, 0876ms total)
T3F3C 001:408 JLINK_WriteReg(R9, 0x20000160)  returns 0x00 (0000ms, 0876ms total)
T3F3C 001:408 JLINK_WriteReg(R10, 0x00000000)  returns 0x00 (0000ms, 0876ms total)
T3F3C 001:408 JLINK_WriteReg(R11, 0x00000000)  returns 0x00 (0000ms, 0876ms total)
T3F3C 001:408 JLINK_WriteReg(R12, 0x00000000)  returns 0x00 (0000ms, 0876ms total)
T3F3C 001:408 JLINK_WriteReg(R13 (SP), 0x20001000)  returns 0x00 (0000ms, 0876ms total)
T3F3C 001:408 JLINK_WriteReg(R14, 0x20000001)  returns 0x00 (0000ms, 0876ms total)
T3F3C 001:408 JLINK_WriteReg(R15 (PC), 0x200000F4)  returns 0x00 (0000ms, 0876ms total)
T3F3C 001:408 JLINK_WriteReg(XPSR, 0x01000000)  returns 0x00 (0001ms, 0877ms total)
T3F3C 001:409 JLINK_WriteReg(MSP, 0x20001000)  returns 0x00 (0000ms, 0877ms total)
T3F3C 001:409 JLINK_WriteReg(PSP, 0x20001000)  returns 0x00 (0000ms, 0877ms total)
T3F3C 001:409 JLINK_WriteReg(CFBP, 0x00000000)  returns 0x00 (0000ms, 0877ms total)
T3F3C 001:409 JLINK_SetBPEx(Addr = 0x20000000, Type = 0xFFFFFFF2)  returns 0x00000005 (0000ms, 0877ms total)
T3F3C 001:409 JLINK_Go() -- CPU_ReadMem(4 bytes @ 0xE0001000) (0003ms, 0880ms total)
T3F3C 001:412 JLINK_IsHalted()  returns FALSE (0001ms, 0881ms total)
T3F3C 001:546 JLINK_IsHalted() -- CPU_ReadMem(2 bytes @ 0x20000000)  returns TRUE (0006ms, 0886ms total)
T3F3C 001:552 JLINK_ReadReg(R15 (PC))  returns 0x20000000 (0000ms, 0880ms total)
T3F3C 001:552 JLINK_ClrBPEx(BPHandle = 0x00000005)  returns 0x00 (0000ms, 0880ms total)
T3F3C 001:552 JLINK_ReadReg(R0)  returns 0x00000000 (0000ms, 0880ms total)
T3F3C 001:552 JLINK_WriteMem(0x20000164, 0x0400 Bytes, ...) - Data: 25 B1 08 B1 0A 46 00 E0 22 46 2A 60 00 28 0D D0 ... -- CPU_WriteMem(1024 bytes @ 0x20000164)  returns 0x400 (0012ms, 0892ms total)
T3F3C 001:564 JLINK_WriteReg(R0, 0x08000400)  returns 0x00 (0000ms, 0892ms total)
T3F3C 001:564 JLINK_WriteReg(R1, 0x00000400)  returns 0x00 (0000ms, 0892ms total)
T3F3C 001:564 JLINK_WriteReg(R2, 0x20000164)  returns 0x00 (0000ms, 0892ms total)
T3F3C 001:564 JLINK_WriteReg(R3, 0x00000000)  returns 0x00 (0000ms, 0892ms total)
T3F3C 001:564 JLINK_WriteReg(R4, 0x00000000)  returns 0x00 (0000ms, 0892ms total)
T3F3C 001:564 JLINK_WriteReg(R5, 0x00000000)  returns 0x00 (0000ms, 0892ms total)
T3F3C 001:564 JLINK_WriteReg(R6, 0x00000000)  returns 0x00 (0000ms, 0892ms total)
T3F3C 001:564 JLINK_WriteReg(R7, 0x00000000)  returns 0x00 (0000ms, 0892ms total)
T3F3C 001:564 JLINK_WriteReg(R8, 0x00000000)  returns 0x00 (0000ms, 0892ms total)
T3F3C 001:564 JLINK_WriteReg(R9, 0x20000160)  returns 0x00 (0000ms, 0892ms total)
T3F3C 001:564 JLINK_WriteReg(R10, 0x00000000)  returns 0x00 (0000ms, 0892ms total)
T3F3C 001:564 JLINK_WriteReg(R11, 0x00000000)  returns 0x00 (0000ms, 0892ms total)
T3F3C 001:564 JLINK_WriteReg(R12, 0x00000000)  returns 0x00 (0000ms, 0892ms total)
T3F3C 001:564 JLINK_WriteReg(R13 (SP), 0x20001000)  returns 0x00 (0000ms, 0892ms total)
T3F3C 001:564 JLINK_WriteReg(R14, 0x20000001)  returns 0x00 (0000ms, 0892ms total)
T3F3C 001:564 JLINK_WriteReg(R15 (PC), 0x200000F4)  returns 0x00 (0000ms, 0892ms total)
T3F3C 001:564 JLINK_WriteReg(XPSR, 0x01000000)  returns 0x00 (0000ms, 0892ms total)
T3F3C 001:564 JLINK_WriteReg(MSP, 0x20001000)  returns 0x00 (0000ms, 0892ms total)
T3F3C 001:564 JLINK_WriteReg(PSP, 0x20001000)  returns 0x00 (0000ms, 0892ms total)
T3F3C 001:564 JLINK_WriteReg(CFBP, 0x00000000)  returns 0x00 (0000ms, 0892ms total)
T3F3C 001:564 JLINK_SetBPEx(Addr = 0x20000000, Type = 0xFFFFFFF2)  returns 0x00000006 (0000ms, 0892ms total)
T3F3C 001:564 JLINK_Go() -- CPU_ReadMem(4 bytes @ 0xE0001000) (0003ms, 0895ms total)
T3F3C 001:567 JLINK_IsHalted()  returns FALSE (0001ms, 0896ms total)
T3F3C 001:570 JLINK_IsHalted() -- CPU_ReadMem(2 bytes @ 0x20000000)  returns TRUE (0006ms, 0901ms total)
T3F3C 001:576 JLINK_ReadReg(R15 (PC))  returns 0x20000000 (0000ms, 0895ms total)
T3F3C 001:576 JLINK_ClrBPEx(BPHandle = 0x00000006)  returns 0x00 (0000ms, 0895ms total)
T3F3C 001:576 JLINK_ReadReg(R0)  returns 0x00000000 (0000ms, 0895ms total)
T3F3C 001:576 JLINK_WriteMem(0x20000164, 0x0400 Bytes, ...) - Data: AE 48 78 44 D0 E9 00 10 C6 E9 00 10 04 F0 00 41 ... -- CPU_WriteMem(1024 bytes @ 0x20000164)  returns 0x400 (0012ms, 0907ms total)
T3F3C 001:588 JLINK_WriteReg(R0, 0x08000800)  returns 0x00 (0000ms, 0907ms total)
T3F3C 001:588 JLINK_WriteReg(R1, 0x00000400)  returns 0x00 (0000ms, 0907ms total)
T3F3C 001:588 JLINK_WriteReg(R2, 0x20000164)  returns 0x00 (0000ms, 0907ms total)
T3F3C 001:588 JLINK_WriteReg(R3, 0x00000000)  returns 0x00 (0000ms, 0907ms total)
T3F3C 001:588 JLINK_WriteReg(R4, 0x00000000)  returns 0x00 (0000ms, 0907ms total)
T3F3C 001:588 JLINK_WriteReg(R5, 0x00000000)  returns 0x00 (0000ms, 0907ms total)
T3F3C 001:588 JLINK_WriteReg(R6, 0x00000000)  returns 0x00 (0000ms, 0907ms total)
T3F3C 001:588 JLINK_WriteReg(R7, 0x00000000)  returns 0x00 (0000ms, 0907ms total)
T3F3C 001:588 JLINK_WriteReg(R8, 0x00000000)  returns 0x00 (0000ms, 0907ms total)
T3F3C 001:588 JLINK_WriteReg(R9, 0x20000160)  returns 0x00 (0000ms, 0907ms total)
T3F3C 001:588 JLINK_WriteReg(R10, 0x00000000)  returns 0x00 (0000ms, 0907ms total)
T3F3C 001:588 JLINK_WriteReg(R11, 0x00000000)  returns 0x00 (0000ms, 0907ms total)
T3F3C 001:588 JLINK_WriteReg(R12, 0x00000000)  returns 0x00 (0000ms, 0907ms total)
T3F3C 001:588 JLINK_WriteReg(R13 (SP), 0x20001000)  returns 0x00 (0000ms, 0907ms total)
T3F3C 001:588 JLINK_WriteReg(R14, 0x20000001)  returns 0x00 (0000ms, 0907ms total)
T3F3C 001:588 JLINK_WriteReg(R15 (PC), 0x200000F4)  returns 0x00 (0000ms, 0907ms total)
T3F3C 001:588 JLINK_WriteReg(XPSR, 0x01000000)  returns 0x00 (0000ms, 0907ms total)
T3F3C 001:588 JLINK_WriteReg(MSP, 0x20001000)  returns 0x00 (0000ms, 0907ms total)
T3F3C 001:588 JLINK_WriteReg(PSP, 0x20001000)  returns 0x00 (0000ms, 0907ms total)
T3F3C 001:588 JLINK_WriteReg(CFBP, 0x00000000)  returns 0x00 (0000ms, 0907ms total)
T3F3C 001:588 JLINK_SetBPEx(Addr = 0x20000000, Type = 0xFFFFFFF2)  returns 0x00000007 (0000ms, 0907ms total)
T3F3C 001:588 JLINK_Go() -- CPU_ReadMem(4 bytes @ 0xE0001000) (0003ms, 0910ms total)
T3F3C 001:591 JLINK_IsHalted()  returns FALSE (0001ms, 0911ms total)
T3F3C 001:623 JLINK_IsHalted() -- CPU_ReadMem(2 bytes @ 0x20000000)  returns TRUE (0006ms, 0916ms total)
T3F3C 001:629 JLINK_ReadReg(R15 (PC))  returns 0x20000000 (0000ms, 0910ms total)
T3F3C 001:629 JLINK_ClrBPEx(BPHandle = 0x00000007)  returns 0x00 (0000ms, 0910ms total)
T3F3C 001:629 JLINK_ReadReg(R0)  returns 0x00000000 (0000ms, 0910ms total)
T3F3C 001:633 JLINK_WriteMem(0x20000164, 0x0400 Bytes, ...) - Data: 4F F0 00 42 DD E9 14 10 01 F1 01 08 DD F8 58 A0 ... -- CPU_WriteMem(1024 bytes @ 0x20000164)  returns 0x400 (0012ms, 0922ms total)
T3F3C 001:645 JLINK_WriteReg(R0, 0x08000C00)  returns 0x00 (0000ms, 0922ms total)
T3F3C 001:645 JLINK_WriteReg(R1, 0x00000400)  returns 0x00 (0000ms, 0922ms total)
T3F3C 001:645 JLINK_WriteReg(R2, 0x20000164)  returns 0x00 (0000ms, 0922ms total)
T3F3C 001:645 JLINK_WriteReg(R3, 0x00000000)  returns 0x00 (0000ms, 0922ms total)
T3F3C 001:645 JLINK_WriteReg(R4, 0x00000000)  returns 0x00 (0000ms, 0922ms total)
T3F3C 001:645 JLINK_WriteReg(R5, 0x00000000)  returns 0x00 (0000ms, 0922ms total)
T3F3C 001:645 JLINK_WriteReg(R6, 0x00000000)  returns 0x00 (0000ms, 0922ms total)
T3F3C 001:645 JLINK_WriteReg(R7, 0x00000000)  returns 0x00 (0000ms, 0922ms total)
T3F3C 001:645 JLINK_WriteReg(R8, 0x00000000)  returns 0x00 (0000ms, 0922ms total)
T3F3C 001:645 JLINK_WriteReg(R9, 0x20000160)  returns 0x00 (0000ms, 0922ms total)
T3F3C 001:645 JLINK_WriteReg(R10, 0x00000000)  returns 0x00 (0000ms, 0922ms total)
T3F3C 001:645 JLINK_WriteReg(R11, 0x00000000)  returns 0x00 (0000ms, 0922ms total)
T3F3C 001:645 JLINK_WriteReg(R12, 0x00000000)  returns 0x00 (0000ms, 0922ms total)
T3F3C 001:645 JLINK_WriteReg(R13 (SP), 0x20001000)  returns 0x00 (0000ms, 0922ms total)
T3F3C 001:645 JLINK_WriteReg(R14, 0x20000001)  returns 0x00 (0000ms, 0922ms total)
T3F3C 001:645 JLINK_WriteReg(R15 (PC), 0x200000F4)  returns 0x00 (0000ms, 0922ms total)
T3F3C 001:646 JLINK_WriteReg(XPSR, 0x01000000)  returns 0x00 (0000ms, 0923ms total)
T3F3C 001:646 JLINK_WriteReg(MSP, 0x20001000)  returns 0x00 (0000ms, 0923ms total)
T3F3C 001:646 JLINK_WriteReg(PSP, 0x20001000)  returns 0x00 (0000ms, 0923ms total)
T3F3C 001:646 JLINK_WriteReg(CFBP, 0x00000000)  returns 0x00 (0000ms, 0923ms total)
T3F3C 001:646 JLINK_SetBPEx(Addr = 0x20000000, Type = 0xFFFFFFF2)  returns 0x00000008 (0000ms, 0923ms total)
T3F3C 001:646 JLINK_Go() -- CPU_ReadMem(4 bytes @ 0xE0001000) (0003ms, 0926ms total)
T3F3C 001:650 JLINK_IsHalted()  returns FALSE (0000ms, 0927ms total)
T3F3C 001:652 JLINK_IsHalted() -- CPU_ReadMem(2 bytes @ 0x20000000)  returns TRUE (0006ms, 0933ms total)
T3F3C 001:658 JLINK_ReadReg(R15 (PC))  returns 0x20000000 (0000ms, 0927ms total)
T3F3C 001:658 JLINK_ClrBPEx(BPHandle = 0x00000008)  returns 0x00 (0000ms, 0927ms total)
T3F3C 001:658 JLINK_ReadReg(R0)  returns 0x00000000 (0000ms, 0927ms total)
T3F3C 001:661 JLINK_WriteMem(0x20000164, 0x0400 Bytes, ...) - Data: F1 D1 64 1C CA F8 00 40 E9 E7 1B F0 24 0F 07 D0 ... -- CPU_WriteMem(1024 bytes @ 0x20000164)  returns 0x400 (0011ms, 0938ms total)
T3F3C 001:672 JLINK_WriteReg(R0, 0x08001000)  returns 0x00 (0000ms, 0938ms total)
T3F3C 001:672 JLINK_WriteReg(R1, 0x00000400)  returns 0x00 (0001ms, 0939ms total)
T3F3C 001:673 JLINK_WriteReg(R2, 0x20000164)  returns 0x00 (0000ms, 0939ms total)
T3F3C 001:673 JLINK_WriteReg(R3, 0x00000000)  returns 0x00 (0000ms, 0939ms total)
T3F3C 001:673 JLINK_WriteReg(R4, 0x00000000)  returns 0x00 (0000ms, 0939ms total)
T3F3C 001:673 JLINK_WriteReg(R5, 0x00000000)  returns 0x00 (0000ms, 0939ms total)
T3F3C 001:673 JLINK_WriteReg(R6, 0x00000000)  returns 0x00 (0000ms, 0939ms total)
T3F3C 001:673 JLINK_WriteReg(R7, 0x00000000)  returns 0x00 (0000ms, 0939ms total)
T3F3C 001:673 JLINK_WriteReg(R8, 0x00000000)  returns 0x00 (0000ms, 0939ms total)
T3F3C 001:673 JLINK_WriteReg(R9, 0x20000160)  returns 0x00 (0000ms, 0939ms total)
T3F3C 001:673 JLINK_WriteReg(R10, 0x00000000)  returns 0x00 (0000ms, 0939ms total)
T3F3C 001:673 JLINK_WriteReg(R11, 0x00000000)  returns 0x00 (0000ms, 0939ms total)
T3F3C 001:673 JLINK_WriteReg(R12, 0x00000000)  returns 0x00 (0000ms, 0939ms total)
T3F3C 001:673 JLINK_WriteReg(R13 (SP), 0x20001000)  returns 0x00 (0000ms, 0939ms total)
T3F3C 001:673 JLINK_WriteReg(R14, 0x20000001)  returns 0x00 (0000ms, 0939ms total)
T3F3C 001:673 JLINK_WriteReg(R15 (PC), 0x200000F4)  returns 0x00 (0000ms, 0939ms total)
T3F3C 001:673 JLINK_WriteReg(XPSR, 0x01000000)  returns 0x00 (0000ms, 0939ms total)
T3F3C 001:673 JLINK_WriteReg(MSP, 0x20001000)  returns 0x00 (0000ms, 0939ms total)
T3F3C 001:673 JLINK_WriteReg(PSP, 0x20001000)  returns 0x00 (0000ms, 0939ms total)
T3F3C 001:673 JLINK_WriteReg(CFBP, 0x00000000)  returns 0x00 (0000ms, 0939ms total)
T3F3C 001:673 JLINK_SetBPEx(Addr = 0x20000000, Type = 0xFFFFFFF2)  returns 0x00000009 (0000ms, 0939ms total)
T3F3C 001:673 JLINK_Go() -- CPU_ReadMem(4 bytes @ 0xE0001000) (0004ms, 0943ms total)
T3F3C 001:677 JLINK_IsHalted()  returns FALSE (0002ms, 0945ms total)
T3F3C 001:739 JLINK_IsHalted() -- CPU_ReadMem(2 bytes @ 0x20000000)  returns TRUE (0007ms, 0950ms total)
T3F3C 001:746 JLINK_ReadReg(R15 (PC))  returns 0x20000000 (0000ms, 0943ms total)
T3F3C 001:746 JLINK_ClrBPEx(BPHandle = 0x00000009)  returns 0x00 (0000ms, 0943ms total)
T3F3C 001:746 JLINK_ReadReg(R0)  returns 0x00000000 (0000ms, 0943ms total)
T3F3C 001:747 JLINK_WriteMem(0x20000164, 0x0400 Bytes, ...) - Data: 37 07 03 B4 4F F0 10 00 4F F0 10 01 4F F0 00 00 ... -- CPU_WriteMem(1024 bytes @ 0x20000164)  returns 0x400 (0011ms, 0954ms total)
T3F3C 001:758 JLINK_WriteReg(R0, 0x08001400)  returns 0x00 (0000ms, 0954ms total)
T3F3C 001:758 JLINK_WriteReg(R1, 0x00000400)  returns 0x00 (0000ms, 0954ms total)
T3F3C 001:758 JLINK_WriteReg(R2, 0x20000164)  returns 0x00 (0000ms, 0954ms total)
T3F3C 001:758 JLINK_WriteReg(R3, 0x00000000)  returns 0x00 (0000ms, 0954ms total)
T3F3C 001:758 JLINK_WriteReg(R4, 0x00000000)  returns 0x00 (0000ms, 0954ms total)
T3F3C 001:759 JLINK_WriteReg(R5, 0x00000000)  returns 0x00 (0000ms, 0954ms total)
T3F3C 001:759 JLINK_WriteReg(R6, 0x00000000)  returns 0x00 (0000ms, 0954ms total)
T3F3C 001:759 JLINK_WriteReg(R7, 0x00000000)  returns 0x00 (0000ms, 0954ms total)
T3F3C 001:759 JLINK_WriteReg(R8, 0x00000000)  returns 0x00 (0000ms, 0954ms total)
T3F3C 001:759 JLINK_WriteReg(R9, 0x20000160)  returns 0x00 (0000ms, 0954ms total)
T3F3C 001:759 JLINK_WriteReg(R10, 0x00000000)  returns 0x00 (0000ms, 0954ms total)
T3F3C 001:759 JLINK_WriteReg(R11, 0x00000000)  returns 0x00 (0000ms, 0954ms total)
T3F3C 001:759 JLINK_WriteReg(R12, 0x00000000)  returns 0x00 (0000ms, 0954ms total)
T3F3C 001:759 JLINK_WriteReg(R13 (SP), 0x20001000)  returns 0x00 (0000ms, 0954ms total)
T3F3C 001:759 JLINK_WriteReg(R14, 0x20000001)  returns 0x00 (0000ms, 0954ms total)
T3F3C 001:759 JLINK_WriteReg(R15 (PC), 0x200000F4)  returns 0x00 (0000ms, 0954ms total)
T3F3C 001:759 JLINK_WriteReg(XPSR, 0x01000000)  returns 0x00 (0000ms, 0954ms total)
T3F3C 001:759 JLINK_WriteReg(MSP, 0x20001000)  returns 0x00 (0000ms, 0954ms total)
T3F3C 001:759 JLINK_WriteReg(PSP, 0x20001000)  returns 0x00 (0000ms, 0954ms total)
T3F3C 001:759 JLINK_WriteReg(CFBP, 0x00000000)  returns 0x00 (0000ms, 0954ms total)
T3F3C 001:759 JLINK_SetBPEx(Addr = 0x20000000, Type = 0xFFFFFFF2)  returns 0x0000000A (0000ms, 0954ms total)
T3F3C 001:759 JLINK_Go() -- CPU_ReadMem(4 bytes @ 0xE0001000) (0004ms, 0958ms total)
T3F3C 001:763 JLINK_IsHalted()  returns FALSE (0001ms, 0959ms total)
T3F3C 001:766 JLINK_IsHalted() -- CPU_ReadMem(2 bytes @ 0x20000000)  returns TRUE (0007ms, 0965ms total)
T3F3C 001:773 JLINK_ReadReg(R15 (PC))  returns 0x20000000 (0000ms, 0958ms total)
T3F3C 001:773 JLINK_ClrBPEx(BPHandle = 0x0000000A)  returns 0x00 (0000ms, 0958ms total)
T3F3C 001:773 JLINK_ReadReg(R0)  returns 0x00000000 (0000ms, 0958ms total)
T3F3C 001:776 JLINK_WriteMem(0x20000164, 0x0400 Bytes, ...) - Data: 20 40 0D 79 0C 68 44 EA 05 24 20 43 50 60 90 68 ... -- CPU_WriteMem(1024 bytes @ 0x20000164)  returns 0x400 (0012ms, 0970ms total)
T3F3C 001:788 JLINK_WriteReg(R0, 0x08001800)  returns 0x00 (0001ms, 0971ms total)
T3F3C 001:789 JLINK_WriteReg(R1, 0x00000400)  returns 0x00 (0000ms, 0971ms total)
T3F3C 001:789 JLINK_WriteReg(R2, 0x20000164)  returns 0x00 (0000ms, 0971ms total)
T3F3C 001:789 JLINK_WriteReg(R3, 0x00000000)  returns 0x00 (0000ms, 0971ms total)
T3F3C 001:789 JLINK_WriteReg(R4, 0x00000000)  returns 0x00 (0000ms, 0971ms total)
T3F3C 001:789 JLINK_WriteReg(R5, 0x00000000)  returns 0x00 (0000ms, 0971ms total)
T3F3C 001:789 JLINK_WriteReg(R6, 0x00000000)  returns 0x00 (0000ms, 0971ms total)
T3F3C 001:789 JLINK_WriteReg(R7, 0x00000000)  returns 0x00 (0000ms, 0971ms total)
T3F3C 001:789 JLINK_WriteReg(R8, 0x00000000)  returns 0x00 (0000ms, 0971ms total)
T3F3C 001:789 JLINK_WriteReg(R9, 0x20000160)  returns 0x00 (0000ms, 0971ms total)
T3F3C 001:789 JLINK_WriteReg(R10, 0x00000000)  returns 0x00 (0000ms, 0971ms total)
T3F3C 001:789 JLINK_WriteReg(R11, 0x00000000)  returns 0x00 (0000ms, 0971ms total)
T3F3C 001:789 JLINK_WriteReg(R12, 0x00000000)  returns 0x00 (0000ms, 0971ms total)
T3F3C 001:789 JLINK_WriteReg(R13 (SP), 0x20001000)  returns 0x00 (0000ms, 0971ms total)
T3F3C 001:789 JLINK_WriteReg(R14, 0x20000001)  returns 0x00 (0000ms, 0971ms total)
T3F3C 001:789 JLINK_WriteReg(R15 (PC), 0x200000F4)  returns 0x00 (0000ms, 0971ms total)
T3F3C 001:789 JLINK_WriteReg(XPSR, 0x01000000)  returns 0x00 (0000ms, 0971ms total)
T3F3C 001:789 JLINK_WriteReg(MSP, 0x20001000)  returns 0x00 (0000ms, 0971ms total)
T3F3C 001:789 JLINK_WriteReg(PSP, 0x20001000)  returns 0x00 (0000ms, 0971ms total)
T3F3C 001:789 JLINK_WriteReg(CFBP, 0x00000000)  returns 0x00 (0000ms, 0971ms total)
T3F3C 001:789 JLINK_SetBPEx(Addr = 0x20000000, Type = 0xFFFFFFF2)  returns 0x0000000B (0000ms, 0971ms total)
T3F3C 001:789 JLINK_Go() -- CPU_ReadMem(4 bytes @ 0xE0001000) (0004ms, 0975ms total)
T3F3C 001:793 JLINK_IsHalted()  returns FALSE (0001ms, 0976ms total)
T3F3C 001:854 JLINK_IsHalted() -- CPU_ReadMem(2 bytes @ 0x20000000)  returns TRUE (0006ms, 0981ms total)
T3F3C 001:860 JLINK_ReadReg(R15 (PC))  returns 0x20000000 (0000ms, 0975ms total)
T3F3C 001:860 JLINK_ClrBPEx(BPHandle = 0x0000000B)  returns 0x00 (0000ms, 0975ms total)
T3F3C 001:860 JLINK_ReadReg(R0)  returns 0x00000000 (0000ms, 0975ms total)
T3F3C 001:861 JLINK_WriteMem(0x20000164, 0x0400 Bytes, ...) - Data: 0F F8 18 B1 4F F4 00 70 00 F0 04 F8 10 BD 00 00 ... -- CPU_WriteMem(1024 bytes @ 0x20000164)  returns 0x400 (0012ms, 0987ms total)
T3F3C 001:873 JLINK_WriteReg(R0, 0x08001C00)  returns 0x00 (0000ms, 0987ms total)
T3F3C 001:873 JLINK_WriteReg(R1, 0x00000400)  returns 0x00 (0000ms, 0987ms total)
T3F3C 001:873 JLINK_WriteReg(R2, 0x20000164)  returns 0x00 (0000ms, 0987ms total)
T3F3C 001:873 JLINK_WriteReg(R3, 0x00000000)  returns 0x00 (0000ms, 0987ms total)
T3F3C 001:873 JLINK_WriteReg(R4, 0x00000000)  returns 0x00 (0000ms, 0987ms total)
T3F3C 001:873 JLINK_WriteReg(R5, 0x00000000)  returns 0x00 (0000ms, 0987ms total)
T3F3C 001:873 JLINK_WriteReg(R6, 0x00000000)  returns 0x00 (0000ms, 0987ms total)
T3F3C 001:873 JLINK_WriteReg(R7, 0x00000000)  returns 0x00 (0000ms, 0987ms total)
T3F3C 001:873 JLINK_WriteReg(R8, 0x00000000)  returns 0x00 (0000ms, 0987ms total)
T3F3C 001:873 JLINK_WriteReg(R9, 0x20000160)  returns 0x00 (0000ms, 0987ms total)
T3F3C 001:873 JLINK_WriteReg(R10, 0x00000000)  returns 0x00 (0000ms, 0987ms total)
T3F3C 001:873 JLINK_WriteReg(R11, 0x00000000)  returns 0x00 (0000ms, 0987ms total)
T3F3C 001:873 JLINK_WriteReg(R12, 0x00000000)  returns 0x00 (0000ms, 0987ms total)
T3F3C 001:873 JLINK_WriteReg(R13 (SP), 0x20001000)  returns 0x00 (0000ms, 0987ms total)
T3F3C 001:873 JLINK_WriteReg(R14, 0x20000001)  returns 0x00 (0001ms, 0988ms total)
T3F3C 001:874 JLINK_WriteReg(R15 (PC), 0x200000F4)  returns 0x00 (0000ms, 0988ms total)
T3F3C 001:874 JLINK_WriteReg(XPSR, 0x01000000)  returns 0x00 (0000ms, 0988ms total)
T3F3C 001:874 JLINK_WriteReg(MSP, 0x20001000)  returns 0x00 (0000ms, 0988ms total)
T3F3C 001:874 JLINK_WriteReg(PSP, 0x20001000)  returns 0x00 (0000ms, 0988ms total)
T3F3C 001:874 JLINK_WriteReg(CFBP, 0x00000000)  returns 0x00 (0000ms, 0988ms total)
T3F3C 001:874 JLINK_SetBPEx(Addr = 0x20000000, Type = 0xFFFFFFF2)  returns 0x0000000C (0000ms, 0988ms total)
T3F3C 001:874 JLINK_Go() -- CPU_ReadMem(4 bytes @ 0xE0001000) (0003ms, 0991ms total)
T3F3C 001:877 JLINK_IsHalted()  returns FALSE (0001ms, 0992ms total)
T3F3C 001:880 JLINK_IsHalted() -- CPU_ReadMem(2 bytes @ 0x20000000)  returns TRUE (0006ms, 0997ms total)
T3F3C 001:886 JLINK_ReadReg(R15 (PC))  returns 0x20000000 (0000ms, 0991ms total)
T3F3C 001:886 JLINK_ClrBPEx(BPHandle = 0x0000000C)  returns 0x00 (0000ms, 0991ms total)
T3F3C 001:886 JLINK_ReadReg(R0)  returns 0x00000000 (0000ms, 0991ms total)
T3F3C 001:887 JLINK_WriteMem(0x20000164, 0x0400 Bytes, ...) - Data: 20 84 27 E0 E8 88 4B F6 FF 71 88 42 06 D1 28 68 ... -- CPU_WriteMem(1024 bytes @ 0x20000164)  returns 0x400 (0012ms, 1003ms total)
T3F3C 001:899 JLINK_WriteReg(R0, 0x08002000)  returns 0x00 (0000ms, 1003ms total)
T3F3C 001:899 JLINK_WriteReg(R1, 0x00000400)  returns 0x00 (0000ms, 1003ms total)
T3F3C 001:899 JLINK_WriteReg(R2, 0x20000164)  returns 0x00 (0000ms, 1003ms total)
T3F3C 001:899 JLINK_WriteReg(R3, 0x00000000)  returns 0x00 (0000ms, 1003ms total)
T3F3C 001:899 JLINK_WriteReg(R4, 0x00000000)  returns 0x00 (0000ms, 1003ms total)
T3F3C 001:899 JLINK_WriteReg(R5, 0x00000000)  returns 0x00 (0000ms, 1003ms total)
T3F3C 001:899 JLINK_WriteReg(R6, 0x00000000)  returns 0x00 (0000ms, 1003ms total)
T3F3C 001:899 JLINK_WriteReg(R7, 0x00000000)  returns 0x00 (0000ms, 1003ms total)
T3F3C 001:899 JLINK_WriteReg(R8, 0x00000000)  returns 0x00 (0000ms, 1003ms total)
T3F3C 001:899 JLINK_WriteReg(R9, 0x20000160)  returns 0x00 (0000ms, 1003ms total)
T3F3C 001:899 JLINK_WriteReg(R10, 0x00000000)  returns 0x00 (0000ms, 1003ms total)
T3F3C 001:899 JLINK_WriteReg(R11, 0x00000000)  returns 0x00 (0000ms, 1003ms total)
T3F3C 001:899 JLINK_WriteReg(R12, 0x00000000)  returns 0x00 (0000ms, 1003ms total)
T3F3C 001:899 JLINK_WriteReg(R13 (SP), 0x20001000)  returns 0x00 (0000ms, 1003ms total)
T3F3C 001:899 JLINK_WriteReg(R14, 0x20000001)  returns 0x00 (0000ms, 1003ms total)
T3F3C 001:899 JLINK_WriteReg(R15 (PC), 0x200000F4)  returns 0x00 (0001ms, 1004ms total)
T3F3C 001:900 JLINK_WriteReg(XPSR, 0x01000000)  returns 0x00 (0000ms, 1004ms total)
T3F3C 001:900 JLINK_WriteReg(MSP, 0x20001000)  returns 0x00 (0000ms, 1004ms total)
T3F3C 001:900 JLINK_WriteReg(PSP, 0x20001000)  returns 0x00 (0000ms, 1004ms total)
T3F3C 001:900 JLINK_WriteReg(CFBP, 0x00000000)  returns 0x00 (0000ms, 1004ms total)
T3F3C 001:900 JLINK_SetBPEx(Addr = 0x20000000, Type = 0xFFFFFFF2)  returns 0x0000000D (0000ms, 1004ms total)
T3F3C 001:900 JLINK_Go() -- CPU_ReadMem(4 bytes @ 0xE0001000) (0004ms, 1008ms total)
T3F3C 001:904 JLINK_IsHalted()  returns FALSE (0001ms, 1009ms total)
T3F3C 001:966 JLINK_IsHalted() -- CPU_ReadMem(2 bytes @ 0x20000000)  returns TRUE (0006ms, 1014ms total)
T3F3C 001:972 JLINK_ReadReg(R15 (PC))  returns 0x20000000 (0000ms, 1008ms total)
T3F3C 001:972 JLINK_ClrBPEx(BPHandle = 0x0000000D)  returns 0x00 (0000ms, 1008ms total)
T3F3C 001:972 JLINK_ReadReg(R0)  returns 0x00000000 (0000ms, 1008ms total)
T3F3C 001:973 JLINK_WriteMem(0x20000164, 0x0400 Bytes, ...) - Data: 83 88 04 8B 4F F6 8F 75 2C 40 B5 1E 2C 40 0D 88 ... -- CPU_WriteMem(1024 bytes @ 0x20000164)  returns 0x400 (0011ms, 1019ms total)
T3F3C 001:984 JLINK_WriteReg(R0, 0x08002400)  returns 0x00 (0000ms, 1019ms total)
T3F3C 001:984 JLINK_WriteReg(R1, 0x00000400)  returns 0x00 (0001ms, 1020ms total)
T3F3C 001:985 JLINK_WriteReg(R2, 0x20000164)  returns 0x00 (0000ms, 1020ms total)
T3F3C 001:985 JLINK_WriteReg(R3, 0x00000000)  returns 0x00 (0000ms, 1020ms total)
T3F3C 001:985 JLINK_WriteReg(R4, 0x00000000)  returns 0x00 (0000ms, 1020ms total)
T3F3C 001:985 JLINK_WriteReg(R5, 0x00000000)  returns 0x00 (0000ms, 1020ms total)
T3F3C 001:985 JLINK_WriteReg(R6, 0x00000000)  returns 0x00 (0000ms, 1020ms total)
T3F3C 001:985 JLINK_WriteReg(R7, 0x00000000)  returns 0x00 (0000ms, 1020ms total)
T3F3C 001:985 JLINK_WriteReg(R8, 0x00000000)  returns 0x00 (0000ms, 1020ms total)
T3F3C 001:985 JLINK_WriteReg(R9, 0x20000160)  returns 0x00 (0000ms, 1020ms total)
T3F3C 001:985 JLINK_WriteReg(R10, 0x00000000)  returns 0x00 (0000ms, 1020ms total)
T3F3C 001:985 JLINK_WriteReg(R11, 0x00000000)  returns 0x00 (0000ms, 1020ms total)
T3F3C 001:985 JLINK_WriteReg(R12, 0x00000000)  returns 0x00 (0000ms, 1020ms total)
T3F3C 001:985 JLINK_WriteReg(R13 (SP), 0x20001000)  returns 0x00 (0000ms, 1020ms total)
T3F3C 001:985 JLINK_WriteReg(R14, 0x20000001)  returns 0x00 (0000ms, 1020ms total)
T3F3C 001:985 JLINK_WriteReg(R15 (PC), 0x200000F4)  returns 0x00 (0000ms, 1020ms total)
T3F3C 001:985 JLINK_WriteReg(XPSR, 0x01000000)  returns 0x00 (0000ms, 1020ms total)
T3F3C 001:985 JLINK_WriteReg(MSP, 0x20001000)  returns 0x00 (0000ms, 1020ms total)
T3F3C 001:985 JLINK_WriteReg(PSP, 0x20001000)  returns 0x00 (0000ms, 1020ms total)
T3F3C 001:985 JLINK_WriteReg(CFBP, 0x00000000)  returns 0x00 (0000ms, 1020ms total)
T3F3C 001:985 JLINK_SetBPEx(Addr = 0x20000000, Type = 0xFFFFFFF2)  returns 0x0000000E (0000ms, 1020ms total)
T3F3C 001:985 JLINK_Go() -- CPU_ReadMem(4 bytes @ 0xE0001000) (0004ms, 1024ms total)
T3F3C 001:989 JLINK_IsHalted()  returns FALSE (0001ms, 1025ms total)
T3F3C 001:992 JLINK_IsHalted() -- CPU_ReadMem(2 bytes @ 0x20000000)  returns TRUE (0006ms, 1030ms total)
T3F3C 001:998 JLINK_ReadReg(R15 (PC))  returns 0x20000000 (0000ms, 1024ms total)
T3F3C 001:998 JLINK_ClrBPEx(BPHandle = 0x0000000E)  returns 0x00 (0000ms, 1024ms total)
T3F3C 001:998 JLINK_ReadReg(R0)  returns 0x00000000 (0000ms, 1024ms total)
T3F3C 001:999 JLINK_WriteMem(0x20000164, 0x0400 Bytes, ...) - Data: 0B 43 83 82 02 E0 83 8A 8B 43 83 82 70 47 02 46 ... -- CPU_WriteMem(1024 bytes @ 0x20000164)  returns 0x400 (0011ms, 1035ms total)
T3F3C 002:010 JLINK_WriteReg(R0, 0x08002800)  returns 0x00 (0000ms, 1035ms total)
T3F3C 002:010 JLINK_WriteReg(R1, 0x00000400)  returns 0x00 (0000ms, 1035ms total)
T3F3C 002:010 JLINK_WriteReg(R2, 0x20000164)  returns 0x00 (0000ms, 1035ms total)
T3F3C 002:010 JLINK_WriteReg(R3, 0x00000000)  returns 0x00 (0001ms, 1036ms total)
T3F3C 002:011 JLINK_WriteReg(R4, 0x00000000)  returns 0x00 (0000ms, 1036ms total)
T3F3C 002:011 JLINK_WriteReg(R5, 0x00000000)  returns 0x00 (0000ms, 1036ms total)
T3F3C 002:011 JLINK_WriteReg(R6, 0x00000000)  returns 0x00 (0000ms, 1036ms total)
T3F3C 002:011 JLINK_WriteReg(R7, 0x00000000)  returns 0x00 (0000ms, 1036ms total)
T3F3C 002:011 JLINK_WriteReg(R8, 0x00000000)  returns 0x00 (0000ms, 1036ms total)
T3F3C 002:011 JLINK_WriteReg(R9, 0x20000160)  returns 0x00 (0000ms, 1036ms total)
T3F3C 002:011 JLINK_WriteReg(R10, 0x00000000)  returns 0x00 (0000ms, 1036ms total)
T3F3C 002:011 JLINK_WriteReg(R11, 0x00000000)  returns 0x00 (0000ms, 1036ms total)
T3F3C 002:011 JLINK_WriteReg(R12, 0x00000000)  returns 0x00 (0000ms, 1036ms total)
T3F3C 002:011 JLINK_WriteReg(R13 (SP), 0x20001000)  returns 0x00 (0000ms, 1036ms total)
T3F3C 002:011 JLINK_WriteReg(R14, 0x20000001)  returns 0x00 (0000ms, 1036ms total)
T3F3C 002:011 JLINK_WriteReg(R15 (PC), 0x200000F4)  returns 0x00 (0000ms, 1036ms total)
T3F3C 002:011 JLINK_WriteReg(XPSR, 0x01000000)  returns 0x00 (0000ms, 1036ms total)
T3F3C 002:011 JLINK_WriteReg(MSP, 0x20001000)  returns 0x00 (0000ms, 1036ms total)
T3F3C 002:011 JLINK_WriteReg(PSP, 0x20001000)  returns 0x00 (0000ms, 1036ms total)
T3F3C 002:011 JLINK_WriteReg(CFBP, 0x00000000)  returns 0x00 (0000ms, 1036ms total)
T3F3C 002:011 JLINK_SetBPEx(Addr = 0x20000000, Type = 0xFFFFFFF2)  returns 0x0000000F (0000ms, 1036ms total)
T3F3C 002:011 JLINK_Go() -- CPU_ReadMem(4 bytes @ 0xE0001000) (0003ms, 1039ms total)
T3F3C 002:014 JLINK_IsHalted()  returns FALSE (0001ms, 1040ms total)
T3F3C 002:075 JLINK_IsHalted() -- CPU_ReadMem(2 bytes @ 0x20000000)  returns TRUE (0007ms, 1046ms total)
T3F3C 002:082 JLINK_ReadReg(R15 (PC))  returns 0x20000000 (0000ms, 1039ms total)
T3F3C 002:082 JLINK_ClrBPEx(BPHandle = 0x0000000F)  returns 0x00 (0000ms, 1039ms total)
T3F3C 002:082 JLINK_ReadReg(R0)  returns 0x00000000 (0000ms, 1039ms total)
T3F3C 002:084 JLINK_WriteMem(0x20000164, 0x0400 Bytes, ...) - Data: 26 10 01 20 6B 49 81 F8 35 00 08 46 04 F0 E6 FF ... -- CPU_WriteMem(1024 bytes @ 0x20000164)  returns 0x400 (0011ms, 1050ms total)
T3F3C 002:095 JLINK_WriteReg(R0, 0x08002C00)  returns 0x00 (0000ms, 1050ms total)
T3F3C 002:095 JLINK_WriteReg(R1, 0x00000400)  returns 0x00 (0000ms, 1050ms total)
T3F3C 002:096 JLINK_WriteReg(R2, 0x20000164)  returns 0x00 (0000ms, 1051ms total)
T3F3C 002:096 JLINK_WriteReg(R3, 0x00000000)  returns 0x00 (0000ms, 1051ms total)
T3F3C 002:096 JLINK_WriteReg(R4, 0x00000000)  returns 0x00 (0000ms, 1051ms total)
T3F3C 002:096 JLINK_WriteReg(R5, 0x00000000)  returns 0x00 (0000ms, 1051ms total)
T3F3C 002:096 JLINK_WriteReg(R6, 0x00000000)  returns 0x00 (0000ms, 1051ms total)
T3F3C 002:096 JLINK_WriteReg(R7, 0x00000000)  returns 0x00 (0000ms, 1051ms total)
T3F3C 002:096 JLINK_WriteReg(R8, 0x00000000)  returns 0x00 (0000ms, 1051ms total)
T3F3C 002:096 JLINK_WriteReg(R9, 0x20000160)  returns 0x00 (0000ms, 1051ms total)
T3F3C 002:096 JLINK_WriteReg(R10, 0x00000000)  returns 0x00 (0000ms, 1051ms total)
T3F3C 002:096 JLINK_WriteReg(R11, 0x00000000)  returns 0x00 (0000ms, 1051ms total)
T3F3C 002:096 JLINK_WriteReg(R12, 0x00000000)  returns 0x00 (0000ms, 1051ms total)
T3F3C 002:096 JLINK_WriteReg(R13 (SP), 0x20001000)  returns 0x00 (0000ms, 1051ms total)
T3F3C 002:096 JLINK_WriteReg(R14, 0x20000001)  returns 0x00 (0000ms, 1051ms total)
T3F3C 002:096 JLINK_WriteReg(R15 (PC), 0x200000F4)  returns 0x00 (0000ms, 1051ms total)
T3F3C 002:096 JLINK_WriteReg(XPSR, 0x01000000)  returns 0x00 (0000ms, 1051ms total)
T3F3C 002:096 JLINK_WriteReg(MSP, 0x20001000)  returns 0x00 (0000ms, 1051ms total)
T3F3C 002:096 JLINK_WriteReg(PSP, 0x20001000)  returns 0x00 (0000ms, 1051ms total)
T3F3C 002:096 JLINK_WriteReg(CFBP, 0x00000000)  returns 0x00 (0000ms, 1051ms total)
T3F3C 002:096 JLINK_SetBPEx(Addr = 0x20000000, Type = 0xFFFFFFF2)  returns 0x00000010 (0000ms, 1051ms total)
T3F3C 002:096 JLINK_Go() -- CPU_ReadMem(4 bytes @ 0xE0001000) (0004ms, 1055ms total)
T3F3C 002:100 JLINK_IsHalted()  returns FALSE (0001ms, 1056ms total)
T3F3C 002:109 JLINK_IsHalted() -- CPU_ReadMem(2 bytes @ 0x20000000)  returns TRUE (0006ms, 1061ms total)
T3F3C 002:115 JLINK_ReadReg(R15 (PC))  returns 0x20000000 (0000ms, 1055ms total)
T3F3C 002:115 JLINK_ClrBPEx(BPHandle = 0x00000010)  returns 0x00 (0000ms, 1055ms total)
T3F3C 002:115 JLINK_ReadReg(R0)  returns 0x00000000 (0000ms, 1055ms total)
T3F3C 002:117 JLINK_WriteMem(0x20000164, 0x0400 Bytes, ...) - Data: 83 48 00 68 07 F0 50 FB 81 46 48 46 06 F0 2A FF ... -- CPU_WriteMem(1024 bytes @ 0x20000164)  returns 0x400 (0012ms, 1067ms total)
T3F3C 002:129 JLINK_WriteReg(R0, 0x08003000)  returns 0x00 (0000ms, 1067ms total)
T3F3C 002:129 JLINK_WriteReg(R1, 0x00000400)  returns 0x00 (0000ms, 1067ms total)
T3F3C 002:129 JLINK_WriteReg(R2, 0x20000164)  returns 0x00 (0000ms, 1067ms total)
T3F3C 002:129 JLINK_WriteReg(R3, 0x00000000)  returns 0x00 (0000ms, 1067ms total)
T3F3C 002:129 JLINK_WriteReg(R4, 0x00000000)  returns 0x00 (0000ms, 1067ms total)
T3F3C 002:129 JLINK_WriteReg(R5, 0x00000000)  returns 0x00 (0000ms, 1067ms total)
T3F3C 002:129 JLINK_WriteReg(R6, 0x00000000)  returns 0x00 (0000ms, 1067ms total)
T3F3C 002:129 JLINK_WriteReg(R7, 0x00000000)  returns 0x00 (0000ms, 1067ms total)
T3F3C 002:129 JLINK_WriteReg(R8, 0x00000000)  returns 0x00 (0000ms, 1067ms total)
T3F3C 002:129 JLINK_WriteReg(R9, 0x20000160)  returns 0x00 (0000ms, 1067ms total)
T3F3C 002:129 JLINK_WriteReg(R10, 0x00000000)  returns 0x00 (0000ms, 1067ms total)
T3F3C 002:129 JLINK_WriteReg(R11, 0x00000000)  returns 0x00 (0000ms, 1067ms total)
T3F3C 002:129 JLINK_WriteReg(R12, 0x00000000)  returns 0x00 (0000ms, 1067ms total)
T3F3C 002:129 JLINK_WriteReg(R13 (SP), 0x20001000)  returns 0x00 (0000ms, 1067ms total)
T3F3C 002:129 JLINK_WriteReg(R14, 0x20000001)  returns 0x00 (0000ms, 1067ms total)
T3F3C 002:129 JLINK_WriteReg(R15 (PC), 0x200000F4)  returns 0x00 (0000ms, 1067ms total)
T3F3C 002:129 JLINK_WriteReg(XPSR, 0x01000000)  returns 0x00 (0000ms, 1067ms total)
T3F3C 002:129 JLINK_WriteReg(MSP, 0x20001000)  returns 0x00 (0000ms, 1067ms total)
T3F3C 002:129 JLINK_WriteReg(PSP, 0x20001000)  returns 0x00 (0000ms, 1067ms total)
T3F3C 002:129 JLINK_WriteReg(CFBP, 0x00000000)  returns 0x00 (0000ms, 1067ms total)
T3F3C 002:129 JLINK_SetBPEx(Addr = 0x20000000, Type = 0xFFFFFFF2)  returns 0x00000011 (0000ms, 1067ms total)
T3F3C 002:129 JLINK_Go() -- CPU_ReadMem(4 bytes @ 0xE0001000) (0004ms, 1071ms total)
T3F3C 002:133 JLINK_IsHalted()  returns FALSE (0001ms, 1072ms total)
T3F3C 002:173 JLINK_IsHalted() -- CPU_ReadMem(2 bytes @ 0x20000000)  returns TRUE (0006ms, 1077ms total)
T3F3C 002:179 JLINK_ReadReg(R15 (PC))  returns 0x20000000 (0000ms, 1071ms total)
T3F3C 002:179 JLINK_ClrBPEx(BPHandle = 0x00000011)  returns 0x00 (0000ms, 1071ms total)
T3F3C 002:179 JLINK_ReadReg(R0)  returns 0x00000000 (0000ms, 1071ms total)
T3F3C 002:181 JLINK_WriteMem(0x20000164, 0x0400 Bytes, ...) - Data: 93 FF 82 46 05 F0 04 FB 0A 90 4F F0 7C 51 0B 98 ... -- CPU_WriteMem(1024 bytes @ 0x20000164)  returns 0x400 (0011ms, 1082ms total)
T3F3C 002:192 JLINK_WriteReg(R0, 0x08003400)  returns 0x00 (0000ms, 1082ms total)
T3F3C 002:192 JLINK_WriteReg(R1, 0x00000400)  returns 0x00 (0000ms, 1082ms total)
T3F3C 002:192 JLINK_WriteReg(R2, 0x20000164)  returns 0x00 (0000ms, 1082ms total)
